
**** 03/10/21 02:34:55 ******* PSpice 17.4.0 (Nov 2018) ******* ID# 0 ********

 ** Profile: "SCHEMATIC1-bias"  [ C:\Users\Gaming\Documents\TeamPhantom\Sensors\Temp_Amp_01\Simulation\temp_sens-pspicefiles\schemati


 ****     CIRCUIT DESCRIPTION


******************************************************************************




** Creating circuit file "bias.cir" 
** WARNING: THIS AUTOMATICALLY GENERATED FILE MAY BE OVERWRITTEN BY SUBSEQUENT SIMULATIONS

*Libraries: 
* Profile Libraries :
* Local Libraries :
* From [PSPICE NETLIST] section of C:\Users\Gaming\cdssetup\OrCAD_PSpiceTIPSpice_Install\17.4.0\PSpice.ini file:
.lib "nom_pspti.lib" 
.lib "nom.lib" 

*Analysis directives: 
.TRAN  0 1000ns 0 
.OPTIONS ADVCONV
.PROBE64 V(alias(*)) I(alias(*)) W(alias(*)) D(alias(*)) NOISE(alias(*)) 
.INC "..\SCHEMATIC1.net" 



**** INCLUDING SCHEMATIC1.net ****
* source TEMP_SENS
V_V1         5V 0 5Vdc
R_R1         N14723 5V  750K TC=0,0 
R_R2         N14745 N14723  75K TC=0,0 
R_R3         0 N14745  100K TC=0,0 
R_R4         N15133 N15057  100 TC=0,0 
C_C1         0 N15057  1n  TC=0,0 
L_L1         N15133 N14654  1T  
C_C2         N14654 0  1T  TC=0,0 
E_U2         N15133 0 VALUE {LIMIT(V(N14723,N14654)*1E6,-15V,+15V)}

**** RESUMING bias.cir ****
.END

**** 03/10/21 02:34:55 ******* PSpice 17.4.0 (Nov 2018) ******* ID# 0 ********

 ** Profile: "SCHEMATIC1-bias"  [ C:\Users\Gaming\Documents\TeamPhantom\Sensors\Temp_Amp_01\Simulation\temp_sens-pspicefiles\schemati


 ****     INITIAL TRANSIENT SOLUTION       TEMPERATURE =   27.000 DEG C


******************************************************************************



 NODE   VOLTAGE     NODE   VOLTAGE     NODE   VOLTAGE     NODE   VOLTAGE


(   5V)    5.0000  (N14654)     .9459 (N14723)     .9459 (N14745)     .5405     

(N15057)     .9459 (N15133)     .9459 




    VOLTAGE SOURCE CURRENTS
    NAME         CURRENT

    V_V1        -5.405E-06

    TOTAL POWER DISSIPATION   2.70E-05  WATTS



          JOB CONCLUDED

**** 03/10/21 02:34:55 ******* PSpice 17.4.0 (Nov 2018) ******* ID# 0 ********

 ** Profile: "SCHEMATIC1-bias"  [ C:\Users\Gaming\Documents\TeamPhantom\Sensors\Temp_Amp_01\Simulation\temp_sens-pspicefiles\schemati


 ****     JOB STATISTICS SUMMARY


******************************************************************************



  License check-out time            =       40.02
  Total job time (using Solver 1)   =         .53
